#GHz S RI 50
26.5 -0.782124400138855 0.28784891963005066 -0.00010607509466353804 2.5803785320022143E-05 0.0001731963420752436 -0.0004637005040422082 0.13318459689617157 0.839187502861023
26.51 -0.7731414437294006 0.28302744030952454 -0.000545322138350457 -0.0003885159967467189 8.094265649560839E-05 4.629044633475132E-05 0.20465801656246185 0.8440346121788025
26.52 -0.7777588963508606 0.26386672258377075 -0.0006657892954535782 -0.0010579136433079839 6.72122259857133E-05 -1.8006603568210267E-05 0.20013178884983063 0.8623237609863281
26.53 -0.7854279279708862 0.25150686502456665 -0.0008259176975116134 1.025442634272622E-05 0.00028173031751066446 -0.0006632203003391623 0.2057541161775589 0.8826224207878113
26.54 -0.7981045842170715 0.23702751100063324 -0.0005561051657423377 0.00020121295528952032 -0.0001064925963873975 -0.0013701090356335044 0.21956102550029755 0.8997149467468262
26.55 -0.8175061941146851 0.2287183254957199 -0.0004632484633475542 0.0005562270525842905 -8.644973422633484E-05 0.0005752947763539851 0.2387862503528595 0.9112057089805603
26.56 -0.8382969498634338 0.22404249012470245 0.0006680267979390919 -3.091584949288517E-05 -0.00029889828874729574 -0.0005999323329888284 0.257633775472641 0.9127458930015564
26.57 -0.8598592877388 0.2234441041946411 -0.0003156420716550201 0.00027833471540361643 0.0003139171749353409 -0.0013378179864957929 0.27566638588905334 0.9083379507064819
26.58 -0.8800336122512817 0.2308102548122406 -0.0007880607736296952 2.018996747210622E-05 0.0006631613941863179 -0.0008368408889509737 0.28755179047584534 0.8994231224060059
26.59 -0.9009436964988708 0.24430395662784576 0.0008971486240625381 -0.0007270895875990391 -0.0003430573851801455 -0.0004236060776747763 0.2924901247024536 0.885443925857544
26.6 -0.9118521213531494 0.2658326029777527 0.00018055671534966677 0.00024734146427363157 -0.00025509140687063336 -2.78114021057263E-05 0.28875020146369934 0.8757643103599548
26.61 -0.9199994802474976 0.2868770658969879 0.0006546648219227791 0.0010507091647014022 0.00011951558553846553 0.00025275303050875664 0.2825423777103424 0.8715948462486267
26.62 -0.9196888208389282 0.3056701123714447 0.0004951313021592796 0.0004740920558106154 0.0006918476428836584 -0.00010584364645183086 0.2739376425743103 0.8755243420600891
26.63 -0.912585973739624 0.3213215470314026 -0.0010535258334130049 9.547084482619539E-05 -0.0005914603243581951 -0.00023110916663426906 0.26743924617767334 0.8845539093017578
26.64 -0.9022010564804077 0.33403170108795166 -0.00025796552654355764 -0.0012318601366132498 4.00799181079492E-05 -0.0003687868593260646 0.26652491092681885 0.9012452363967896
26.65 -0.893854558467865 0.33972832560539246 -2.9601811547763646E-05 -0.00013273094373289496 -6.347387534333393E-05 -0.00021139663294889033 0.2719503939151764 0.9171340465545654
26.66 -0.8865639567375183 0.33876267075538635 0.000918322941288352 -0.0001510844158474356 -0.00016151009185705334 0.00011375912436051294 0.28945687413215637 0.9340459704399109
26.67 -0.888209342956543 0.33328908681869507 0.0003924062184523791 -0.0002477529342286289 0.00024290458532050252 -0.0005470203468576074 0.309796541929245 0.9443731904029846
26.68 -0.8903745412826538 0.3311992287635803 -0.0008462503319606185 0.00018203136278316379 -0.0006914445548318326 -0.0011959782568737864 0.33711886405944824 0.942838728427887
26.69 -0.8971712589263916 0.32935047149658203 0.0003447035269346088 3.217757694073953E-05 -0.0011867963476106524 -0.0002114470989909023 0.3631981611251831 0.9319608807563782
26.7 -0.909562885761261 0.33047163486480713 0.00016721730935387313 -0.0007948937127366662 -0.00023330019030254334 -0.0006930918898433447 0.38186487555503845 0.9082092642784119
26.71 -0.924189567565918 0.33699503540992737 -0.00029235047986730933 -0.00018451950745657086 7.788488801452331E-06 0.00025259610265493393 0.38949909806251526 0.8841824531555176
26.72 -0.9413385391235352 0.3489282727241516 -0.0010819887975230813 -3.3495714887976646E-05 0.0003746479924302548 -0.00023517577210441232 0.38640132546424866 0.8569334149360657
26.73 -0.9554169178009033 0.369873583316803 -0.00035848261904902756 0.00038919554208405316 -0.0003017623967025429 -0.00035982951521873474 0.3747866451740265 0.8359972238540649
26.74 -0.960914134979248 0.3947458863258362 0.00033412923221476376 -0.0006364620057865977 -0.0005660915630869567 0.0003232946328353137 0.35562723875045776 0.82143235206604
26.75 -0.9582341313362122 0.42380237579345703 -5.6149419833673164E-05 -0.0007944004610180855 0.0002803451207000762 -0.00011853774049086496 0.33417409658432007 0.8164777755737305
26.76 -0.9453104138374329 0.44894590973854065 -0.00036371490568853915 0.0005534285446628928 -0.0007891120039857924 -4.1327282815473154E-05 0.31328681111335754 0.8123219609260559
26.77 -0.9266383051872253 0.46499112248420715 0.0006431379588320851 0.0011939319083467126 0.0011675524292513728 0.00044676836114376783 0.2914700210094452 0.821137547492981
26.78 -0.9026662111282349 0.47376108169555664 4.3522675696294755E-05 -2.7336738639860414E-05 -0.00010107750131282955 0.0006542417104355991 0.2748558521270752 0.8320347666740417
26.79 -0.8806382417678833 0.4713898301124573 -0.00020285787468310446 7.883841317379847E-05 -0.0011299863690510392 0.0001414925791323185 0.2599587142467499 0.8511630296707153
26.8 -0.8644450902938843 0.46409159898757935 -0.00018507851928006858 0.0003184211964253336 -0.0006480009178631008 -0.0008355831378139555 0.2526647448539734 0.8692256212234497
26.81 -0.8555316925048828 0.4501377046108246 0.0007575558847747743 -0.0005174365360289812 0.0008587120100855827 -0.0010593085316941142 0.24976833164691925 0.8898842334747314
26.82 -0.8530923128128052 0.4370869994163513 -7.015503069851547E-05 -0.0005975502426736057 7.305432518478483E-05 -3.0410728868446313E-05 0.2519231140613556 0.9081907868385315
26.83 -0.8600854873657227 0.4226776361465454 -3.811520218732767E-05 0.0004982704413123429 0.0004747485800180584 0.0003810593334492296 0.25655773282051086 0.9226712584495544
26.84 -0.8701443076133728 0.41622194647789 -1.0812911568791606E-05 -2.079582009173464E-05 -0.0002994803071487695 -0.0005314277368597686 0.26145294308662415 0.936851441860199
26.85 -0.8837342858314514 0.413431853055954 -0.000660897814668715 0.00010196403309237212 -0.0003593239525798708 -0.00022967126278672367 0.2672094404697418 0.94908607006073
26.86 -0.897819459438324 0.4178481996059418 0.0004033623554278165 -0.0001673533406574279 0.0007582136895507574 -7.438656029989943E-05 0.2711713910102844 0.9600159525871277
26.87 -0.9112275838851929 0.4295457899570465 0.00014466898574028164 -0.000504888768773526 0.00048073133802972734 0.0005023063858971 0.2767537832260132 0.9716758131980896
26.88 -0.9189411997795105 0.44661641120910645 0.00012105123460059986 9.743901318870485E-05 0.0004416245792526752 0.0005605422775261104 0.2817055284976959 0.985737681388855
26.89 -0.921733021736145 0.4641207158565521 0.0005111119244247675 -0.0001072725499398075 0.0002540250134188682 0.0013355333358049393 0.2920977771282196 0.9987612366676331
26.9 -0.9153861403465271 0.4811818599700928 -0.00016315672837663442 -0.0006244741380214691 0.00011172948870807886 0.00032258263672702014 0.3047712445259094 1.0124393701553345
26.91 -0.900419294834137 0.4942299723625183 -2.3892109311418608E-05 -0.0003444662143010646 0.00026190662174485624 -0.0006317653460428119 0.3190218508243561 1.024701476097107
26.92 -0.8882768750190735 0.4987260103225708 0.00016111329023260623 0.00018528076179791242 9.214092278853059E-05 -0.00038514501648023725 0.33713728189468384 1.0313069820404053
26.93 -0.8717727065086365 0.4971250593662262 0.00038093552575446665 -0.000685016973875463 -0.00013998344365973026 -0.0004923018859699368 0.35604140162467957 1.033020257949829
26.94 -0.8595425486564636 0.4896429777145386 0.0004345469642430544 0.0012140681501477957 -0.00018619663023855537 0.0009375923546031117 0.37201714515686035 1.0330158472061157
26.95 -0.8492957353591919 0.47701355814933777 -0.00012322826660238206 0.0003935134445782751 -0.0004945531254634261 -0.00011365842510713264 0.38431376218795776 1.0293489694595337
26.96 -0.8481540679931641 0.46395689249038696 0.00013136757479514927 0.00031404412584379315 -0.0007961449446156621 0.00011772702418966219 0.39258328080177307 1.023728847503662
26.97 -0.8526665568351746 0.44904062151908875 -0.0002784316020552069 0.0009516063728369772 0.0010199538664892316 -7.85692609497346E-05 0.3981395363807678 1.0203245878219604
26.98 -0.8599294424057007 0.4377516508102417 -0.0001856338494690135 -0.0004294363607186824 0.0003771586634684354 0.0008669040398672223 0.40114253759384155 1.0206382274627686
26.99 -0.8713110089302063 0.42693424224853516 -4.256235115462914E-06 0.0004927051486447453 -0.0001892322616185993 -0.0010825952049344778 0.40440744161605835 1.0233628749847412
27.0 -0.8872843980789185 0.41801735758781433 0.0007982964161783457 0.0002639015146996826 0.00023028416035231203 -0.0006459036958403885 0.4070795774459839 1.0321863889694214
27.01 -0.9062288403511047 0.4151969850063324 -0.0014470915775746107 -0.0005605497281067073 0.0008028373122215271 0.0008598771528340876 0.42058196663856506 1.0422585010528564
27.02 -0.9257611036300659 0.4175015985965729 0.0007243623258545995 -0.0003934663545805961 0.00035266336635686457 -0.00034563918597996235 0.4365918040275574 1.0486210584640503
27.03 -0.9443232417106628 0.42668935656547546 4.2702522478066385E-05 0.000762260751798749 0.00016627034347038716 -6.219983333721757E-05 0.46165838837623596 1.0522955656051636
27.04 -0.9611822366714478 0.43883195519447327 0.0010010909754782915 0.0004549916193354875 -0.0002884114219341427 -0.0005906815640628338 0.4901720881462097 1.045548439025879
27.05 -0.9751876592636108 0.45533740520477295 -0.0005326881655491889 0.0008152499794960022 0.00036036293022334576 -0.0005878947558812797 0.515292763710022 1.0303373336791992
27.06 -0.9820475578308105 0.4772060811519623 0.00017746169760357589 0.00013945752289146185 0.00011107119644293562 0.00117432267870754 0.533447265625 1.0111560821533203
27.07 -0.9825136065483093 0.49499455094337463 -0.0007280859281308949 -0.0006855027168057859 8.435365452896804E-05 0.0008832031162455678 0.5418697595596313 0.9838986992835999
27.08 -0.981736421585083 0.5122005939483643 -8.682408952154219E-05 0.0004636501253116876 0.00046819436829537153 -0.000598812650423497 0.5412508249282837 0.9595921635627747
27.09 -0.9782431125640869 0.5236033797264099 -0.00012240906653460115 -0.0008644717745482922 -0.00010037272295448929 0.0012030102079734206 0.53231281042099 0.9442855715751648
27.1 -0.9759871363639832 0.5338617563247681 -6.784316065022722E-05 0.0004062455554958433 0.0007199671817943454 -1.9503271687426604E-05 0.5211136937141418 0.9345442652702332
27.11 -0.9765803217887878 0.5406632423400879 -0.000839226704556495 -0.00025295731029473245 0.00021409394685178995 -0.0003523104533087462 0.5073503851890564 0.931342363357544
27.12 -0.9778775572776794 0.5458875298500061 -0.00043463963083922863 0.000809521006885916 -0.00025529504637233913 -5.584417885984294E-05 0.4955929219722748 0.9353986978530884
27.13 -0.9858002662658691 0.5535277128219604 -1.57998911163304E-05 -3.1577699701301754E-05 -0.0009848173940554261 0.0001076445696526207 0.4914606213569641 0.9477640390396118
27.14 -0.9921106100082397 0.5666253566741943 0.0008500712574459612 -0.0006995380390435457 -0.0007662374991923571 0.0001759622828103602 0.49325326085090637 0.9600932598114014
27.15 -0.9978306293487549 0.5828384757041931 0.0007017971947789192 -0.0007653955253772438 -0.00045939598930999637 0.0011618161806836724 0.5019866824150085 0.9728667140007019
27.16 -1.002043604850769 0.6048445701599121 0.00036668090615421534 -0.0005682145711034536 -0.0009978922316804528 0.00010795881098601967 0.5212331414222717 0.9839338064193726
27.17 -0.9986809492111206 0.6322909593582153 -0.00014795837341807783 -0.00021062983432784677 -0.00027015837258659303 -0.0015854431549087167 0.5453552603721619 0.986587643623352
27.18 -0.988990306854248 0.658115029335022 -0.0002810895093716681 0.00012933490506839007 0.0003776185039896518 0.0005670292885042727 0.5710899233818054 0.981063961982727
27.19 -0.975438117980957 0.6809983253479004 -0.0008646778296679258 -0.00047466804971918464 -0.0006355841760523617 -0.00043421683949418366 0.5902524590492249 0.9634996652603149
27.2 -0.9552523493766785 0.7013977766036987 -0.0005796478362753987 -0.001069143763743341 -3.0603598133893684E-05 0.00031736542587168515 0.6054455041885376 0.9410433173179626
27.21 -0.9279547929763794 0.718551516532898 0.0002641747996676713 0.00046465330524370074 -7.396284900096362E-07 5.450718163046986E-05 0.6062911152839661 0.9123950600624084
27.22 -0.9024059176445007 0.7260305881500244 -0.0009512390242889524 0.0003635278553701937 -0.0009995006257668138 0.00025012955302372575 0.5987205505371094 0.8911510705947876
27.23 -0.8763539791107178 0.7292780876159668 0.0006314193597063422 -0.00047144698328338563 0.00025559714413248 0.00024995318381115794 0.5855336785316467 0.8765261769294739
27.24 -0.8494436740875244 0.7242820262908936 0.0003165131784044206 -0.0005328879924491048 -0.0003060947929043323 -0.0002356773620704189 0.5692967176437378 0.8722382187843323
27.25 -0.8278796672821045 0.719355583190918 -0.00015066003834363073 -0.00016574098845012486 0.0001475946046411991 0.00011674551205942407 0.557060718536377 0.8731529116630554
27.26 -0.8079056739807129 0.7098023295402527 2.0457429855014198E-05 -0.0003055052657146007 -0.0008851017919369042 0.00047417375026270747 0.5477288961410522 0.881530225276947
27.27 -0.7912821769714355 0.6984248757362366 -7.388430094579235E-05 -0.00018847825413104147 2.4391571059823036E-05 -0.0002730425912886858 0.5471945405006409 0.8935104012489319
27.28 -0.7765015959739685 0.6857706308364868 -0.00057328020920977 -0.00016428064554929733 0.00034872349351644516 0.000828681280836463 0.5524236559867859 0.9045658707618713
27.29 -0.7674818634986877 0.6685653924942017 -0.0006464588223025203 -6.52583985356614E-05 -0.0006092756520956755 0.000428998057032004 0.5636418461799622 0.912848174571991
27.3 -0.7568358182907104 0.6537874937057495 -0.0008883870905265212 0.0007172988262027502 0.000959807017352432 -0.00029583671130239964 0.5798203945159912 0.9153955578804016
27.31 -0.7474485039710999 0.6375716328620911 -0.0006449404754675925 0.0007869078544899821 0.00035450278664939106 0.0007645960431545973 0.5955958962440491 0.9122176766395569
27.32 -0.7439040541648865 0.6174980401992798 -0.0001982637622859329 1.0160782039747573E-05 -0.0003913348482456058 -0.0004051797732245177 0.6111530065536499 0.9022963047027588
27.33 -0.7440140247344971 0.6001780033111572 0.0004021793429274112 -0.0006089851958677173 0.0006308547453954816 -0.0009710392914712429 0.6221060752868652 0.8873341679573059
27.34 -0.7445876598358154 0.5837022662162781 -0.00027981065795756876 -9.897307609207928E-05 -0.00028134571039117873 -0.0004142974503338337 0.6251412630081177 0.8726574778556824
27.35 -0.7514214515686035 0.5661213397979736 7.669757178518921E-05 -0.0002721402561292052 -0.0005051599582657218 0.0004513358580879867 0.6246365904808044 0.8608222007751465
27.36 -0.7588817477226257 0.5494089126586914 0.00014407082926481962 0.0006625106325373054 0.0003838039410766214 3.8266876799752936E-05 0.6189432740211487 0.8498489260673523
27.37 -0.7700639367103577 0.5361412763595581 -0.0008373836171813309 -0.0007298187119886279 0.00010850898979697376 -0.00019354731193743646 0.6117503643035889 0.8479711413383484
27.38 -0.7824064493179321 0.5263054966926575 0.0002860228414647281 0.0004344760091044009 -0.0001451553252991289 0.0013085545506328344 0.6060259342193604 0.847205400466919
27.39 -0.7987174391746521 0.5181254148483276 -3.91484827559907E-05 -0.000741995987482369 -0.0004203360003884882 7.585959247080609E-05 0.6059507131576538 0.8529564142227173
27.4 -0.8151625990867615 0.5102640986442566 -0.0004453023720998317 0.0005962690338492393 5.463871275424026E-05 0.0006000914145261049 0.6102157235145569 0.8568574786186218
27.41 -0.8307086229324341 0.5065564513206482 0.0002724799851421267 -0.0003679176443256438 -0.0003661310765892267 0.00028074259171262383 0.6199683547019958 0.8600783348083496
27.42 -0.8504642844200134 0.5039790868759155 0.00013037279131822288 0.0003509684174787253 -0.0003734898054972291 -6.543092604260892E-05 0.632503867149353 0.8575308918952942
27.43 -0.868161678314209 0.5077816843986511 0.00038138122181408107 0.0016419553430750966 0.0007045764359645545 -0.0001781673781806603 0.6470150947570801 0.8517897129058838
27.44 -0.8877183794975281 0.5130048394203186 -0.0012210807763040066 -0.000923040381167084 0.0004946770495735109 -0.0009824663866311312 0.6592520475387573 0.8357309699058533
27.45 -0.9042667150497437 0.5210790634155273 -0.00046785600716248155 -0.0010500401258468628 -0.0010626190342009068 -0.00010962776286760345 0.6650995016098022 0.8170729279518127
27.46 -0.9240250587463379 0.5322079658508301 -0.00013503442460205406 -3.689075310830958E-05 -0.000301701104035601 0.0004911116557195783 0.667381227016449 0.7962192296981812
27.47 -0.9374169111251831 0.5488787293434143 -0.0004653623327612877 -0.0003032296954188496 -0.0016776251140981913 -0.0007636244408786297 0.6647794246673584 0.7770538926124573
27.48 -0.9497323632240295 0.5679851174354553 -0.00011760676716221496 2.2409391021938063E-05 0.000568470626603812 -0.0002643162151798606 0.6548709869384766 0.7618821859359741
27.49 -0.9599180221557617 0.5887267589569092 7.915221794974059E-05 0.00013995855988468975 0.00023789633996784687 -0.0007408458623103797 0.6432752013206482 0.7462189197540283
27.5 -0.9690079689025879 0.6112327575683594 -0.0006240156944841146 0.0002787022676784545 -0.0002696682931855321 0.0002983077138196677 0.6263945698738098 0.7363736033439636
27.51 -0.9733819961547852 0.6354829668998718 0.0004391611728351563 -6.686875713057816E-05 0.0003465062181930989 -0.0002945825981441885 0.6106775999069214 0.7302092909812927
27.52 -0.9744393825531006 0.6659258604049683 0.0006194561719894409 6.446529005188495E-05 0.0004826885415241122 -0.00016430408868473023 0.5927606225013733 0.7292765378952026
27.53 -0.974397599697113 0.6940768957138062 0.00012864914606325328 0.000441964075434953 0.00028754223603755236 0.0011902751866728067 0.5785678029060364 0.7307133078575134
27.54 -0.961207926273346 0.7246578335762024 -0.0004154705966357142 -0.00015597508172504604 -0.000656473683193326 -0.00016490428242832422 0.5632537603378296 0.7386206984519958
27.55 -0.9445196390151978 0.7585089802742004 -0.0012173184659332037 0.0010050761047750711 -0.00020962461712770164 0.00037434996920637786 0.5523318648338318 0.7463539838790894
27.56 -0.9155658483505249 0.7845515608787537 -1.3086129001749214E-05 -0.0002715704613365233 -0.0005780055653303862 -0.0003993695427197963 0.5469962954521179 0.7566065788269043
27.57 -0.8814246654510498 0.8073018789291382 -0.00036462038406170905 -7.299255958059803E-05 -0.0004820848407689482 -0.00011786437971750274 0.5424492955207825 0.7685627937316895
27.58 -0.8402085304260254 0.8202176094055176 4.5506192691391334E-05 -0.0009536425350233912 -0.0003307875886093825 -9.07666762941517E-05 0.538999080657959 0.777900218963623
27.59 -0.7956258058547974 0.8179629445075989 0.00014468372683040798 -6.35885662632063E-05 7.937899499665946E-05 -0.0009276052587665617 0.5377386212348938 0.7871828079223633
27.6 -0.7557065486907959 0.8083431720733643 -0.0005952501087449491 -0.00035141067928634584 -0.00015821977285668254 -0.001110280049033463 0.5364341735839844 0.7945103049278259
27.61 -0.7238563895225525 0.7866942286491394 0.0014112129574641585 0.0014805978862568736 -0.0009184575756080449 -0.0003781809355132282 0.5355554223060608 0.8046747446060181
27.62 -0.6974080801010132 0.76014244556427 0.0002850456512533128 0.000976331124547869 -0.00023904356930870563 -7.41329713491723E-05 0.5347758531570435 0.81421959400177
27.63 -0.6809839606285095 0.7296139001846313 -0.0007778279832564294 0.00033401220571249723 0.00025576649932190776 0.0008578767883591354 0.5370539426803589 0.827942430973053
