!this is a comment
#GHz S RI 50
27.65 -0.05609447488329414 -0.15053934020387325 -0.00808718747622115 0.006678240189377499 1.6483093748669446E-05 -9.203119474453995E-06 -0.00024934872984882345 0.0001435604656367431 1.0020734485316735E-05 -1.1007530938847454E-05 -0.00023806247103234286 0.00015926427497046344 -0.07585588746975712 0.14138661475679246 0.0006790562789675598 -0.017455553585234547
27.66 0.1461803269607676 0.06627803326242858 -0.0026937089810061547 -0.014658395213270477 1.33293299197479E-05 -1.7503354278892218E-05 -0.00023675223838701698 0.00010427741095111194 1.6449553362867241E-06 -9.302359493374293E-06 -0.0002022695942993805 0.00015881586800046277 -0.06816167707087435 -0.1435898384545976 0.018099426918067627 0.012520659261595525
27.67 -0.1479794282039022 0.06104032478064858 0.012494206326238247 0.0026220781215915774 2.6750221869245886E-06 -1.9138896645302787E-05 -0.00026876615988158804 8.245923404031023E-05 -8.912370981388323E-06 -9.246972822244496E-06 -0.00020206782706161229 0.00018223309265607705 0.15331479009436122 0.029570065443418656 -0.01744783285112963 0.011020726391810197
27.68 0.06328552963754645 -0.14697497840071325 -0.007215437289861027 0.0030475656699903843 -6.748915369141707E-06 -2.0077400330669274E-05 -0.00027563492467588976 4.85540698733347E-05 -6.022286672356765E-06 -4.670135385394742E-06 -0.00018894778873298096 0.00019032914533840262 -0.11624990675604463 0.10032035484122767 0.0026396007932101857 -0.01490629312845904
27.69 0.05983499732057546 0.14881078020225855 0.008304227082359188 -0.008022843154478416 -1.79021800633419E-05 -1.220482869617939E-05 -0.0002866265445392719 6.237117159438946E-05 -5.437215017979927E-06 1.3751834256656636E-06 -0.0001417922334269019 0.00023710137197218198 -0.015056397229583523 -0.1501850468041456 0.008155136475920106 0.015665501845508894
27.7 -0.14492193033915315 -0.06926066548887065 0.0042586951548513295 0.014559941525285938 -1.8443251224578907E-05 -3.702652123001656E-06 -0.00026186468387532204 -1.282616334558551E-05 -1.1665506657286743E-06 5.869184084406451E-06 -0.00013032024743077212 0.00020148308829636877 0.12633227793900978 0.0778304700317741 -0.021963102440066995 -0.00034101849449447554
27.71 0.15246051707426936 -0.05236253733341542 -0.011011269751908784 -0.0019399962336003758 -1.952718827168202E-05 4.450483519381262E-06 -0.0002860236992670447 -2.903646021152002E-05 1.2517878295735218E-06 1.5962103409177158E-06 -0.00011308324030315003 0.00023341492517767586 -0.13805925416106601 0.05277097862083315 0.008190490506228628 -0.017751816523778028
27.72 -0.0740225269597174 0.14366550894431662 0.007161400128414224 -0.0005129339746972701 -1.671843250908306E-05 1.590612251537111E-05 -0.0002828840896789855 -5.4565813649497675E-05 -2.0230538997981057E-06 1.5077223078059956E-06 -9.444619943996663E-05 0.00024144803036909635 0.04510897626094021 -0.1407980035279124 0.004198122412998586 0.014215061337577828
27.73 -0.047729160985998574 -0.15451209777986685 -0.010533935938898585 0.007822998313288632 -6.733252615925523E-06 2.0832969127912448E-05 -0.00027793754790903316 -6.588338701187131E-05 8.229077478194608E-07 -6.23558511812575E-07 -6.428349453175107E-05 0.00024907640150210206 0.08150729001396839 0.12422653242935044 -0.016120216438957023 -0.011254621892719452
27.74 0.14105820494485063 0.07824687259519654 -0.0036925964931704483 -0.01493636184742638 2.3247087135496673E-07 2.1836835510887827E-05 -0.0002465960397859744 -0.00010885032947475964 -1.9551540303255667E-06 2.0362527877594017E-06 -6.412351132214175E-05 0.0002349546850010939 -0.1501867406950573 -0.014006255490873714 0.020634060884697724 -0.011793565032320945
27.75 -0.15388807596675516 0.044939344767032284 0.009508179864154108 0.002931629919872974 1.6602116566262303E-05 1.9393085842836846E-05 -0.00028716032344195986 -0.00011144709002674325 -2.9426134524120537E-06 3.981787519445794E-06 -1.7242855733194664E-05 0.0002790840260011565 0.1050225797678746 -0.10976492848887255 0.0014223456711778815 0.019671965900982098
27.76 0.07866975160431668 -0.13837426680931364 -0.008626327070143774 -0.001722298286690995 2.2419337640030653E-05 5.4122786560565195E-06 -0.0002386439664647233 -0.00013167318683651594 -3.3434406229352506E-07 3.87718706624649E-06 -9.822770488467775E-06 0.00025478403755485113 0.01944504881077381 0.15150358508040734 -0.009897725683943478 -0.011881393272565915
27.77 0.040491963657238596 0.15237123576574707 0.011621066768726488 -0.008979071806123503 2.665595909889532E-05 -3.6533872202383668E-06 -0.0002488833877026639 -0.00015046928551935612 6.0565892674795594E-06 5.317838299067527E-06 1.7988837649664436E-05 0.00027555707921230697 -0.13133171017108755 -0.07995100864429386 0.021272772483535273 0.0023503076678710487
27.78 -0.13475347597790485 -0.08005883488252753 0.003883137122928591 0.01420840560492027 1.917049475842812E-05 -1.65401010415228E-05 -0.00020561236151459493 -0.00016485484681835595 6.6620953001122535E-06 -2.0023743824271876E-06 3.364653119076302E-05 0.00025084115615416747 0.14147419055139268 -0.05829327412704341 -0.010624641153049275 0.020738138656989726
27.79 0.15179882421211355 -0.03793557890977616 -0.007689603908808469 -0.004098179064707339 7.352265781940364E-06 -2.3893129423811542E-05 -0.00020180691075896113 -0.0001897037426142573 4.564373067865432E-06 -9.532432549850523E-06 6.212663052516342E-05 0.00026623697996508346 -0.042644103450442006 0.14730637476201128 -0.009282445963614964 -0.01455918466290985
27.8 -0.08191451871208025 0.13322162348879113 0.010610781562441184 0.0035625514523462266 -5.883820672327629E-06 -2.3982936690344865E-05 -0.00018031969608125526 -0.00019286932408040983 -1.300494723770012E-07 -1.0281097090363192E-05 8.238522006730384E-05 0.00024028524401145158 -0.08951117225806857 -0.12544615127525877 0.013515725440281895 0.00783829470400966
27.81 -0.02887517697727489 -0.15483077601408432 -0.012814188791570112 0.01050615218698301 -1.535644287836739E-05 -1.9448665951279013E-05 -0.0001588777903433827 -0.00021850306357825772 -5.141487889424542E-06 -7.475061101167386E-06 0.00010578044020427456 0.00024152458711059274 0.15389524951393516 0.01279129082453144 -0.021249727421751848 0.00795563865307849
27.82 0.12967820572456 0.09114206256444714 -0.004080220023953839 -0.01369301388690945 -2.0503173952269025E-05 -7.136665005177274E-06 -0.00012103605033198962 -0.0002141979920044118 -9.869446666422021E-06 -1.8073780310597115E-06 9.692518742854672E-05 0.0002182338288894302 -0.11141526306462433 0.11053927896996146 0.0009710059111008118 -0.023064847077425146
27.83 -0.1571226560566009 0.02571464989128986 0.005771643418132023 0.005147143679136158 -2.4192177846873802E-05 3.515158308771953E-06 -8.729436645173297E-05 -0.0002570443675190152 -1.3062041015136049E-05 6.906866462581098E-06 0.00010378702034451721 0.0002489861054653989 -0.014946928884553842 -0.15851696610082366 0.012209997848374654 0.010373106175864693
27.84 0.09475643959024069 -0.1292210272336166 -0.011644257359060047 -0.0058035136465870345 -1.616633823811256E-05 1.2728948354491848E-05 -7.696671824319483E-05 -0.0002514811579689442 -5.079547618729259E-06 9.159750080960612E-06 0.0001263341753375385 0.00023373829778355556 0.13230744726350546 0.09213867858898796 -0.016936727569953337 -0.005135125860707958
27.85 0.022628918320699926 0.15826738439946367 0.013431051813302524 -0.010813574060203597 -6.492509464339447E-06 2.0618894905834862E-05 -6.432218692178895E-05 -0.00025515564191555816 3.834447139529198E-06 1.2486392634098986E-05 0.00014992927971427242 0.0002164419787035996 -0.15817772808188557 0.043992458053234304 0.019024077940968574 -0.01667537888262972
27.86 -0.12749555589508244 -0.09552255334686571 0.002702249067999601 0.012472963691690892 3.9345205237274075E-06 1.88279806320918E-05 -2.2122785313452372E-05 -0.00023753978665517255 5.584148082565068E-06 8.05532894098049E-06 0.00012906363945337142 0.00021146249885880508 0.0698329309762353 -0.14992917853840476 0.007068603896266658 0.022309079519922215
27.87 0.15687362365011837 -0.024481225997009047 -0.004085131579482817 -0.007850811491993183 1.3472684273558986E-05 1.182872757992714E-05 -1.5135779192348962E-05 -0.0002695138611478832 9.81993370408157E-06 -3.5320624088815775E-06 0.00017863997677363197 0.00021960203342601622 0.07746558269491322 0.14718196240282458 -0.014740495736097516 -0.007340851686656732
27.88 -0.09323058008484138 0.12713141266631933 0.014421870521891736 0.0067007690477400555 1.4630071148327564E-05 5.048994203618518E-06 2.3702375891763094E-05 -0.00026289189439445554 4.407080652807588E-06 -8.424812063111795E-06 0.00018342876602641325 0.00021425463143299705 -0.1649649115682746 -0.02932111070050583 0.02101826058829496 -0.002498903247132723
27.89 -0.021804743328742517 -0.15591216169836672 -0.013383873927161312 0.012372006157727511 1.1922671284090648E-05 -2.7593540234557088E-06 2.3229563121807862E-05 -0.00026585060766934414 1.0119884271487376E-06 -9.976837338592727E-06 0.0002275639522729591 0.0001691996443092148 0.12170883625276262 -0.11522167131943155 -0.007854761885598445 0.025435363168674237
27.9 0.12654903741773166 0.09364154301552521 -0.002293331415131234 -0.011982803776652451 1.0359413144932868E-05 -3.938176984468092E-06 4.568614731197086E-05 -0.00023552363186142772 -7.35880751683356E-06 -4.425630440742967E-06 0.00021938332533769284 0.00013840033146878797 0.017777145932256464 0.16736929679664445 -0.01651030211964242 -0.014473034023625288
27.91 -0.15601702053720698 0.02214579745747771 0.004404076758719811 0.009922627153863281 6.979703793334069E-06 -9.7570480945086E-06 8.682315244663594E-05 -0.0002448089372690225 -8.212463282200367E-06 1.81421690547733E-06 0.00024323007903894462 0.00014752943827134408 -0.1436813179178723 -0.08927582256633766 0.017056810103276795 0.0021230176905950534
27.92 0.09287953914538603 -0.12825981540932144 -0.016473261722028305 -0.004879973833806708 5.7435554548185285E-06 -6.021718066727828E-06 0.00011349342434693408 -0.00023770676342423823 -2.715104389235503E-06 7.223812547995075E-06 0.00024816434109371 0.00013163456602400156 0.15876432750597994 -0.05894022542153058 -0.019959273443002877 0.015062094488099587
27.93 0.02177174349574494 0.15740193526125368 0.011027255658387445 -0.012742955506520106 1.2388439248294523E-06 -8.329900597162618E-06 0.00012914240494500847 -0.0002621739085879246 3.614269205587425E-07 5.729104745511832E-06 0.00030239459337655996 9.332853575512144E-05 -0.051555561944521856 0.16210972318739605 -0.00779220238136538 -0.027410167829974495
27.94 -0.12597824128270368 -0.09796240441586657 0.00037325399375893586 0.010074469253666122 -1.6131813220327174E-06 -1.1129590345900012E-05 0.00013929149556332152 -0.0002370984738588024 4.200638007811714E-06 3.0266181898960492E-06 0.00029062462782661753 4.145619012994366E-05 -0.10340671845375969 -0.13599103745988475 0.02109090738637738 0.0034403510035862827
27.95 0.1585642006420857 -0.022776712772838714 -0.003739650149441531 -0.01258619081152526 -4.103261501357512E-06 -1.1151652625355639E-05 0.00014021958041422771 -0.00020918750055148972 4.0072372494773796E-06 -2.6946705063248072E-06 0.00026732715342500765 1.511812884230047E-05 0.17096600365322892 0.004048605450535881 -0.017941406729856856 0.006276694412988654
27.96 -0.09615701514375817 0.12848809930502308 0.018021802076611828 0.004502688168078132 -1.1245104687918195E-05 -8.66202470506921E-06 0.0002014060321158094 -0.00018643980594040423 3.2957086974871097E-06 -6.535864763676862E-06 0.00028722411026429166 4.134587381717794E-05 -0.11083729617538232 0.1311356268934227 0.008957844300659497 -0.026023812901831696
27.97 -0.02153823138966193 -0.15953452845691518 -0.01012114654909963 0.012086676455166557 -1.792845389628574E-05 -1.1868365088843226E-06 0.00021475280715169836 -0.00022503368447018197 -9.380635960422952E-07 -3.248155373339181E-06 0.00032656872703302467 -3.0286449588715894E-05 -0.03817707401998431 -0.1681761829328964 0.022216927963472237 0.017343888317676817
27.98 0.1273182667756738 0.098846584911765 0.0019787959995366147 -0.00965907094193934 -1.5317613252299676E-05 7.2035151297859E-06 0.00019736955693829813 -0.00019506075620142024 -4.550836683014147E-06 -2.40628728407053E-07 0.00028214246598257694 -6.810261759668577E-05 0.1557818888460754 0.07389920346558493 -0.018465249073390005 0.005731647058339307
27.99 -0.15984811618298256 0.021933884776128527 0.00434048277318185 0.015148179980293594 -1.2076759398802294E-05 1.5413414332935467E-05 0.00019913605730970165 -0.00015642540705025266 -1.9446030086657983E-06 4.039261773797307E-06 0.00025770885507560396 -7.913183544106245E-05 -0.1527720367688991 0.08070967596076782 0.014470917218342481 -0.014746202299910277
28.0 0.09779766021827109 -0.12862520630005025 -0.01912819188844614 -0.0030954692421415343 -2.547519809791679E-06 1.7601932335253275E-05 0.0002456480953638833 -0.0001057560705567231 -1.5820652680446694E-06 4.9554739372714445E-06 0.00028008566707004884 -5.3952501411202144E-05 0.031167223281215472 -0.16961705819530978 0.007409208294415774 0.02742028162740967
28.01 0.024348550308098873 0.1595333408025996 0.008493818412593787 -0.011263719867793402 1.008872782927325E-05 2.3235543115810823E-05 0.00025373538421999794 -0.0001626981965204008 3.817781872293052E-06 3.9286868362839215E-06 0.00027273042013686724 -0.00016657763014840224 0.11793940370533519 0.12318501952282986 -0.025531837071816835 -0.0012383560329791616
28.02 -0.1321682976929965 -0.09244244726649094 -0.003326748438628838 0.009378383667943723 1.6571914643026476E-05 1.0958268466217904E-05 0.00023980059114966435 -0.00011117543048180163 2.326477784436416E-06 1.8466783415497205E-06 0.00023106574983586373 -0.00015765124624842025 -0.16797107058190305 0.01904755584791243 0.012121403240099589 -0.011228159759550639
28.03 0.1585075386684953 -0.028917733947449106 -0.005571777895828507 -0.015883835697099037 1.919210951851582E-05 1.7368477286435345E-06 0.00023731805685610596 -9.611353842868358E-05 2.142022663579674E-06 7.614316723403621E-07 0.00019895932309261006 -0.0001794390352524069 0.08316286086641336 -0.14420774351618734 -0.005898940418566729 0.02073124962797708
28.04 -0.08891734348186521 0.1339613746253333 0.017993981057389603 0.0010598768766951542 1.8179805146230787E-05 -5.948842752425083E-06 0.00026924180436439343 -4.827040640646887E-05 6.178136548932463E-06 -1.6319417887887092E-06 0.0002145873942680413 -0.00018432757638371915 0.06554222067103141 0.1498169466396333 -0.02134463750412983 -0.01721230573123762
28.05 -0.027584608104380112 -0.1582335353750189 -0.007906833930881138 0.008087571756257603 1.2193660486038237E-05 -1.8013825751872663E-05 0.00028082484691631393 -6.0108921263227056E-05 3.0711240290028383E-06 -3.55357010919493E-06 0.0001705657435234804 -0.0002346845395896424 -0.15717004651168326 -0.0408693537168588 0.019936486974099814 -0.011180692698650182
28.06 0.13390482400797338 0.08855571939047008 0.006581343651683245 -0.010146845836258165 1.7528991529872758E-06 -1.8262026494868378E-05 0.0002582148532651894 -2.7446104364676546E-05 -1.151591940629874E-06 -5.617695571187738E-06 0.00014541222252132237 -0.00020991772805359327 0.12664434963591506 -0.09837445987521867 -0.005807456595431822 0.014782786958752384
28.07 -0.15584407258195423 0.0369463187550611 0.00705333681357208 0.01741891362313703 -8.989209012601328E-06 -1.9152054458980923E-05 0.00026702159398825457 -3.621311454312223E-05 -2.8442396110761174E-06 -4.689144970086932E-06 0.00011800255885173896 -0.0002299708959986867 -0.006593481214941535 0.15953504640680244 -0.005478778325484071 -0.02078072697873455
28.08 0.08021557741398225 -0.13798331000646935 -0.017602879339840966 -0.0004662287562357025 -1.5339852245075824E-05 -1.398099422729808E-05 0.0002593864255781627 1.4920869611090819E-05 -2.5859999134994978E-06 -3.1532101088431446E-06 0.00013385007410457442 -0.00021255743345585342 -0.11919954946821576 -0.10840955938197513 0.02447093807158738 0.004626873587235905
28.09 0.04333743084887006 0.15290378980200917 0.009034526666441427 -0.006900746713737196 -1.9332689373878654E-05 -4.685784908381874E-06 0.00029870940037975607 2.4581767085720024E-05 -6.890354472533077E-06 -7.319764949573819E-07 0.0001262128877215353 -0.00026183109472373804 0.1595709055384618 -0.029170026072269872 -0.011889460890649683 0.014669320452383318
28.1 -0.13853427303974758 -0.07576440538541217 -0.0074771047132265265 0.013751987939475324 -1.824577004841751E-05 4.08643189935114E-06 0.0002823328578250558 3.7515859967044315E-05 -6.615652467181495E-06 3.4473876529226246E-06 8.316762089224628E-05 -0.00027005527660427887 -0.06900523284220357 0.1493092538001368 0.0021546041476366157 -0.01658446275484747
28.11 0.15049335643670397 -0.04499456669898332 -0.010768933232993284 -0.017367901016034974 -1.3909535568838291E-05 1.3219173465654586E-05 0.0002674316337060099 4.213227797620861E-05 -4.04075607453223E-06 7.325462324065004E-06 3.664871375735817E-05 -0.0002750828207650583 -0.08181660630500091 -0.14554899884706343 0.017456231771794 0.01727362561502913
28.12 -0.07144405425992552 0.1395032120217496 0.016806983266780404 -0.00193340279716864 -7.91635599266435E-06 1.664003368814476E-05 0.00023288313769625623 7.205652327202211E-05 -1.0280344168256674E-06 7.492024074156924E-06 4.002859483571606E-05 -0.0002529434112934514 0.16534005325856505 0.02636266165896156 -0.02290985213399069 0.010068411198800243
28.13 -0.05057337995027374 -0.1477860045474498 -0.00832337824633029 0.0066395267337683575 4.288963977889696E-06 2.010099215569144E-05 0.0002573475107672873 0.00010366107768374732 6.116480154697258E-06 7.678955888568484E-06 8.914851667475938E-06 -0.00029395108622462497 -0.11672658321186599 0.12127974126216791 0.0032145483643270887 -0.017287105547508612
28.14 0.14174422173883997 0.06619437910350827 0.006447463696516297 -0.014214044431921565 1.505549213284178E-05 1.8754016384882448E-05 0.00026992235019057404 0.00010820546017196887 1.0077217356256812E-05 3.2546986954525303E-06 -5.4179087039690936E-05 -0.000304980466547016 -0.03421786595565646 -0.1644086916345383 0.006779211851851222 0.018251955333175123
28.15 -0.14632267957181752 0.05752124448922879 0.011246439298243175 0.014847747674759717 1.8170946710822373E-05 7.380841836704924E-06 0.0002651731358341855 9.836860436823646E-05 7.968542125931692E-06 -5.055121484264154E-06 -0.00011354101428887804 -0.0002811961128626475 0.15154989844557135 0.06852978374150248 -0.02662837929170633 -0.003981312962610369
28.16 0.05982076732995996 -0.14591643114969882 -0.014293907776085253 0.000698865201355421 1.8811764213459574E-05 -6.481290002670406E-06 0.00021791016578897498 0.00010093834363571379 7.301434696148111E-06 -9.859827076924248E-06 -0.0001258494561569259 -0.00022188567365088264 -0.1426893126620353 0.08524279741166366 0.011561955549127928 -0.022584383393052687
28.17 0.06623453590979753 0.14448053996022384 0.011329078423794358 -0.005448378980680963 1.684374333538409E-05 -1.3852003260774697E-05 0.00022851938453181082 0.00015515055796903334 -4.535966503138151E-06 -1.5304396723421985E-05 -0.00015364259327636787 -0.00024695606453489376 0.011433139046986888 -0.16525550169950973 0.007731777370004713 0.017228536554470292
28.18 -0.15227131233880295 -0.04871155118680916 -0.006130378573819236 0.018116750396364085 6.101678331295382E-06 -1.9874023526931742E-05 0.0002565013366262804 0.0001614615716470767 -1.1537346134863835E-05 -1.081292453543991E-05 -0.00021462896499652978 -0.0002290293928904505 0.12838201643594402 0.10418658559014926 -0.02005559945021838 -0.009503180444440701
28.19 0.14160518350013915 -0.07493087280715684 -0.01386964889676311 -0.014461801643468138 -4.071377935078852E-06 -1.9130194684324385E-05 0.00024757853653581245 0.00014845752862550332 -1.4435915555722822E-05 3.152956030591118E-06 -0.0002440422923092616 -0.00016949874904992934 -0.1607910671925222 0.04115209138542921 0.021079006642938058 -0.016644156723676615
